
**** 02/17/24 12:14:02 **** PSpice 23.1.0 (24 January 2024) *** ID# 0 ********

 ** Profile: "SCHEMATIC1-trans"  [ C:\Users\marka\Spring-2024\Senior-Design\ece_1896\electrical\PSPICE\boost\boost_transient-PSpiceFi


 ****     CIRCUIT DESCRIPTION


******************************************************************************




** Creating circuit file "trans.cir" 
** WARNING: THIS AUTOMATICALLY GENERATED FILE MAY BE OVERWRITTEN BY SUBSEQUENT SIMULATIONS

*Libraries: 
* Profile Libraries :
* Local Libraries :
* From [PSPICE NETLIST] section of C:\SPB_DATA\cdssetup\OrCAD_PSpice\23.1.0\PSpice.ini file:
.lib "nom.lib" 

*Analysis directives: 
.TRAN  0 1000ns 0 
.OPTIONS ADVCONV
.PROBE64 V(alias(*)) I(alias(*)) W(alias(*)) D(alias(*)) NOISE(alias(*)) 
.INC "..\SCHEMATIC1.net" 



**** INCLUDING SCHEMATIC1.net ****
* source BOOST_TRANSIENT
E_U2         VOUT 0 VALUE {LIMIT(V(N00163,0)*1E6,-15V,+15V)}
C_C1         N00163 VOUT  1u  TC=0,0 
R_R1         N00163 VOUT  1k TC=0,0 
R_R2         VIN N00163  1k TC=0,0 
V_V1         VIN 0 1V

**** RESUMING trans.cir ****
.END

**** 02/17/24 12:14:02 **** PSpice 23.1.0 (24 January 2024) *** ID# 0 ********

 ** Profile: "SCHEMATIC1-trans"  [ C:\Users\marka\Spring-2024\Senior-Design\ece_1896\electrical\PSPICE\boost\boost_transient-PSpiceFi


 ****     INITIAL TRANSIENT SOLUTION       TEMPERATURE =   27.000 DEG C


******************************************************************************



 NODE   VOLTAGE     NODE   VOLTAGE     NODE   VOLTAGE     NODE   VOLTAGE


(  VIN)    1.0000  ( VOUT)   -1.0000  (N00163)-1.000E-06 




    VOLTAGE SOURCE CURRENTS
    NAME         CURRENT

    V_V1        -1.000E-03

    TOTAL POWER DISSIPATION   1.00E-03  WATTS



          JOB CONCLUDED

**** 02/17/24 12:14:02 **** PSpice 23.1.0 (24 January 2024) *** ID# 0 ********

 ** Profile: "SCHEMATIC1-trans"  [ C:\Users\marka\Spring-2024\Senior-Design\ece_1896\electrical\PSPICE\boost\boost_transient-PSpiceFi


 ****     JOB STATISTICS SUMMARY


******************************************************************************



  Total job time (using Solver 1)   =         .08
